
T154C 000:446 SEGGER J-Link V4.80g Log File (0000ms, 0261ms total)
T154C 000:446 DLL Compiled: Feb 13 2014 20:50:02 (0000ms, 0261ms total)
T154C 000:446 Logging started @ 2014-12-10 15:41 (0000ms, 0261ms total)
T154C 000:447 JLINK_SetWarnOutHandler(...) (0000ms, 0261ms total)
T154C 000:447 JLINK_OpenEx(...)
Firmware: J-Link ARM V8 compiled Nov 25 2013 19:20:08
Hardware: V8.00
S/N: 270676280
Feature(s): RDI,FlashDL,FlashBP,JFlash,GDBFULL  returns O.K. (0261ms, 0522ms total)
T154C 000:708 JLINK_SetErrorOutHandler(...) (0000ms, 0522ms total)
T154C 000:708 JLINK_ExecCommand("ProjectFile = "C:\Users\Administrator\Desktop\STM_TMS2812\USER\JLinkSettings.ini"", ...)  returns 0x00 (0001ms, 0523ms total)
T154C 000:709 JLINK_ExecCommand("Device = STM32F103ZE", ...)Device "STM32F103ZE" selected (512 KB flash, 64 KB RAM).  returns 0x00 (0002ms, 0525ms total)
T154C 000:711 JLINK_ExecCommand("DisableConnectionTimeout", ...)  returns 0x01 (0000ms, 0525ms total)
T154C 000:711 JLINK_GetHardwareVersion()  returns 0x13880 (0000ms, 0525ms total)
T154C 000:711 JLINK_GetDLLVersion()  returns 48007 (0000ms, 0525ms total)
T154C 000:711 JLINK_GetFirmwareString(...) (0000ms, 0525ms total)
T154C 000:715 JLINK_GetDLLVersion()  returns 48007 (0000ms, 0525ms total)
T154C 000:715 JLINK_GetCompileDateTime() (0000ms, 0525ms total)
T154C 000:716 JLINK_GetFirmwareString(...) (0000ms, 0525ms total)
T154C 000:716 JLINK_GetHardwareVersion()  returns 0x13880 (0000ms, 0525ms total)
T154C 000:718 JLINK_TIF_Select(JLINKARM_TIF_JTAG)  returns 0x00 (0002ms, 0527ms total)
T154C 000:720 JLINK_SetSpeed(2000) (0000ms, 0527ms total)
T154C 000:720 JLINK_GetIdData(...) >0x2F8 JTAG>TotalIRLen = 9, IRPrint = 0x0011 >0x30 JTAG> >0x210 JTAG> >0x40 JTAG> >0x40 JTAG> >0x40 JTAG> >0x30 JTAG> >0x40 JTAG> >0x40 JTAG> >0x40 JTAG> >0x40 JTAG> >0x40 JTAG> >0x40 JTAG> >0x40 JTAG> >0x40 JTAG> >0x2F8 JTAG>TotalIRLen = 9, IRPrint = 0x0011 >0x30 JTAG> >0x210 JTAG> >0x70 JTAG> >0x40 JTAG> >0x40 JTAG> >0x40 JTAG> >0x50 JTAG> >0x80 JTAG> >0x40 JTAG> >0x30 JTAG> >0x40 JTAG> >0x40 JTAG> >0x30 JTAG> >0x40 JTAG> >0x50 JTAG>
Found Cortex-M3 r1p1, Little endian. -- CPU_WriteMem(4 bytes @ 0xE0002000) -- CPU_ReadMem(4 bytes @ 0xE000EDF0) -- CPU_ReadMem(4 bytes @ 0xE0002000)FPUnit: 6 code (BP) slots and 2 literal slots -- CPU_ReadMem(4 bytes @ 0xE000EDFC) -- CPU_ReadMem(4 bytes @ 0xE0001000) -- CPU_WriteMem(4 bytes @ 0xE0001000) -- CPU_ReadMem(4 bytes @ 0xE00FF010)TPIU fitted. -- CPU_ReadMem(4 bytes @ 0xE00FF014)ETM fitted. -- CPU_ReadMem(4 bytes @ 0xE00FF018) ScanLen=9 NumDevices=2 aId[0]=0x3BA00477 aIrRead[0]=0 aScanLen[0]=0
 aScanRead[0]=0 (0031ms, 0558ms total)
T154C 000:751 JLINK_JTAG_GetDeviceID(DeviceIndex = 0)  returns 0x3BA00477 (0000ms, 0558ms total)
T154C 000:751 JLINK_JTAG_GetDeviceInfo(DeviceIndex = 0)  returns 0x00 (0000ms, 0558ms total)
T154C 000:751 JLINK_JTAG_GetDeviceID(DeviceIndex = 1)  returns 0x6414041 (0000ms, 0558ms total)
T154C 000:751 JLINK_JTAG_GetDeviceInfo(DeviceIndex = 1)  returns 0x00 (0000ms, 0558ms total)
T154C 000:751 JLINK_GetDeviceFamily()  returns 3 (0000ms, 0558ms total)
T154C 000:751 JLINK_ReadMem (0xE00FFFF0, 0x0010 Bytes, ...) -- CPU is running -- CPU_ReadMem(16 bytes @ 0xE00FFFF0) -- Data:  0D 00 00 00 10 00 00 00 05 00 00 00 B1 00 00 00  returns 0x00 (0002ms, 0560ms total)
T154C 000:753 JLINK_ReadMem (0xE00FFFD0, 0x0020 Bytes, ...) -- CPU is running -- CPU_ReadMem(32 bytes @ 0xE00FFFD0) -- Data:  00 00 00 00 00 00 00 00 00 00 00 00 00 00 00 00 ...  returns 0x00 (0001ms, 0561ms total)
T154C 000:754 JLINK_ReadMem (0xE00FF000, 0x0018 Bytes, ...) -- CPU is running -- CPU_ReadMem(24 bytes @ 0xE00FF000) -- Data:  03 F0 F0 FF 03 20 F0 FF 03 30 F0 FF 03 10 F0 FF ...  returns 0x00 (0001ms, 0562ms total)
T154C 000:755 JLINK_ReadMemU32(0xE000ED00, 0x0001 Items, ...) -- CPU is running -- CPU_ReadMem(4 bytes @ 0xE000ED00) -- Data:  31 C2 1F 41  returns 0x01 (0001ms, 0563ms total)
T154C 000:756 JLINK_SetResetType(JLINKARM_RESET_TYPE_NORMAL)  returns JLINKARM_RESET_TYPE_NORMAL (0000ms, 0563ms total)
T154C 000:756 JLINK_Reset() -- CPU is running -- CPU_WriteMem(4 bytes @ 0xE000EDF0) -- CPU is running -- CPU_WriteMem(4 bytes @ 0xE000EDFC) -- CPU is running -- CPU_WriteMem(4 bytes @ 0xE000ED0C) -- CPU is running -- CPU_ReadMem(4 bytes @ 0xE000EDF0) -- CPU is running -- CPU_ReadMem(4 bytes @ 0xE000EDF0) -- CPU is running -- CPU_WriteMem(4 bytes @ 0xE000EDF0) -- CPU is running -- CPU_WriteMem(4 bytes @ 0xE000EDFC) -- CPU is running -- CPU_ReadMem(4 bytes @ 0xE000EDF0) >0x80 JTAG> >0x40 JTAG> >0x30 JTAG>
 >0x40 JTAG> >0x50 JTAG> >0x40 JTAG> -- CPU_WriteMem(4 bytes @ 0xE000EDFC) -- CPU_WriteMem(4 bytes @ 0xE0001028) -- CPU_WriteMem(4 bytes @ 0xE0001038) -- CPU_WriteMem(4 bytes @ 0xE0001048) -- CPU_WriteMem(4 bytes @ 0xE0001058) -- CPU_WriteMem(4 bytes @ 0xE0002000) -- CPU_ReadMem(4 bytes @ 0xE000EDFC) -- CPU_ReadMem(4 bytes @ 0xE0001000) (0033ms, 0596ms total)
T154C 000:789 JLINK_ReadReg(R15 (PC))  returns 0x080001CC (0000ms, 0596ms total)
T154C 000:789 JLINK_ReadReg(XPSR)  returns 0x01000000 (0000ms, 0596ms total)
T154C 000:789 JLINK_Halt()  returns 0x00 (0000ms, 0596ms total)
T154C 000:789 JLINK_IsHalted()  returns TRUE (0000ms, 0596ms total)
T154C 000:789 JLINK_ReadMemU32(0xE000EDF0, 0x0001 Items, ...) -- CPU_ReadMem(4 bytes @ 0xE000EDF0) -- Data:  03 00 03 00  returns 0x01 (0001ms, 0597ms total)
T154C 000:790 JLINK_WriteU32(0xE000EDF0, 0xA05F0003) -- CPU_WriteMem(4 bytes @ 0xE000EDF0)  returns 0x00 (0001ms, 0598ms total)
T154C 000:791 JLINK_WriteU32(0xE000EDFC, 0x01000000) -- CPU_WriteMem(4 bytes @ 0xE000EDFC)  returns 0x00 (0001ms, 0599ms total)
T154C 000:792 JLINK_GetHWStatus(...)  returns 0x00 (0001ms, 0600ms total)
T154C 000:793 JLINK_GetNumBPUnits(Type = 0xFFFFFF00)  returns 0x06 (0000ms, 0600ms total)
T154C 000:793 JLINK_GetNumBPUnits(Type = 0xF0)  returns 0x2000 (0000ms, 0600ms total)
T154C 000:793 JLINK_GetNumWPUnits()  returns 0x04 (0000ms, 0600ms total)
T154C 000:794 JLINK_GetSpeed()  returns 0x7D0 (0000ms, 0600ms total)
T154C 000:794 JLINK_ReadMemU32(0xE000E004, 0x0001 Items, ...) -- CPU_ReadMem(4 bytes @ 0xE000E004) -- Data:  01 00 00 00  returns 0x01 (0001ms, 0601ms total)
T154C 000:795 JLINK_ReadMemU32(0xE000E004, 0x0001 Items, ...) -- CPU_ReadMem(4 bytes @ 0xE000E004) -- Data:  01 00 00 00  returns 0x01 (0001ms, 0602ms total)
T154C 000:796 JLINK_WriteMem(0xE0001000, 0x001C Bytes, ...) -- Data:  01 00 00 00 00 00 00 00 00 00 00 00 00 00 00 00 ... -- CPU_WriteMem(28 bytes @ 0xE0001000)  returns 0x1C (0001ms, 0603ms total)
T154C 000:797 JLINK_ReadMem (0xE0001000, 0x001C Bytes, ...) -- CPU_ReadMem(28 bytes @ 0xE0001000) -- Data:  01 00 00 40 00 00 00 00 00 00 00 00 00 00 00 00 ...  returns 0x00 (0001ms, 0604ms total)
T154C 000:798 JLINK_ReadReg(R15 (PC))  returns 0x080001CC (0000ms, 0604ms total)
T154C 000:798 JLINK_ReadReg(XPSR)  returns 0x01000000 (0000ms, 0604ms total)
T154C 001:031 JLINK_SetResetType(JLINKARM_RESET_TYPE_NORMAL)  returns JLINKARM_RESET_TYPE_NORMAL (0000ms, 0604ms total)
T154C 001:031 JLINK_Reset() -- CPU_WriteMem(4 bytes @ 0xE000EDF0) -- CPU_WriteMem(4 bytes @ 0xE000EDFC) -- CPU_WriteMem(4 bytes @ 0xE000ED0C) -- CPU_ReadMem(4 bytes @ 0xE000EDF0) -- CPU_ReadMem(4 bytes @ 0xE000EDF0) -- CPU_WriteMem(4 bytes @ 0xE000EDF0) -- CPU_WriteMem(4 bytes @ 0xE000EDFC) -- CPU is running -- CPU_ReadMem(4 bytes @ 0xE000EDF0) >0x80 JTAG> >0x40 JTAG> >0x30 JTAG> >0x40 JTAG> >0x50 JTAG> >0x40 JTAG> -- CPU_WriteMem(4 bytes @ 0xE000EDFC) -- CPU_WriteMem(4 bytes @ 0xE0001028)
 -- CPU_WriteMem(4 bytes @ 0xE0001038) -- CPU_WriteMem(4 bytes @ 0xE0001048) -- CPU_WriteMem(4 bytes @ 0xE0001058) -- CPU_WriteMem(4 bytes @ 0xE0002000) -- CPU_ReadMem(4 bytes @ 0xE000EDFC) -- CPU_ReadMem(4 bytes @ 0xE0001000) (0033ms, 0637ms total)
T154C 001:064 JLINK_ReadReg(R15 (PC))  returns 0x080001CC (0000ms, 0637ms total)
T154C 001:064 JLINK_ReadReg(XPSR)  returns 0x01000000 (0000ms, 0637ms total)
T154C 001:065 JLINK_ReadMem (0x080001CC, 0x003C Bytes, ...) -- CPU_ReadMem(128 bytes @ 0x080001C0) -- Updating C cache (128 bytes @ 0x080001C0) -- Read from C cache (60 bytes @ 0x080001CC) -- Data:  09 48 80 47 09 48 00 47 FE E7 FE E7 FE E7 FE E7 ...  returns 0x00 (0002ms, 0639ms total)
T116C 001:986 JLINK_SetBPEx(Addr = 0x08000406, Type = 0xFFFFFFF2)  returns 0x00000001 (0000ms, 0639ms total)
T116C 001:986 JLINK_SetBPEx(Addr = 0x08001B22, Type = 0xFFFFFFF2)  returns 0x00000002 (0000ms, 0639ms total)
T116C 001:986 JLINK_SetBPEx(Addr = 0x080018B2, Type = 0xFFFFFFF2)  returns 0x00000003 (0000ms, 0639ms total)
T116C 001:986 JLINK_Go() -- CPU_WriteMem(4 bytes @ 0xE0002008) -- CPU_WriteMem(4 bytes @ 0xE000200C) -- CPU_WriteMem(4 bytes @ 0xE0002010) -- CPU_WriteMem(4 bytes @ 0xE0002014) -- CPU_WriteMem(4 bytes @ 0xE0002018) -- CPU_WriteMem(4 bytes @ 0xE000201C) -- CPU_WriteMem(4 bytes @ 0xE0001004) (0004ms, 0643ms total)
T116C 002:091 JLINK_IsHalted()  returns TRUE (0005ms, 0648ms total)
T116C 002:096 JLINK_Halt()  returns 0x00 (0000ms, 0643ms total)
T116C 002:096 JLINK_IsHalted()  returns TRUE (0000ms, 0643ms total)
T116C 002:096 JLINK_IsHalted()  returns TRUE (0000ms, 0643ms total)
T116C 002:096 JLINK_IsHalted()  returns TRUE (0000ms, 0643ms total)
T116C 002:096 JLINK_ReadReg(R15 (PC))  returns 0x08000406 (0000ms, 0643ms total)
T116C 002:096 JLINK_ReadReg(XPSR)  returns 0x21000000 (0000ms, 0643ms total)
T116C 002:096 JLINK_ClrBPEx(BPHandle = 0x00000001)  returns 0x00 (0000ms, 0643ms total)
T116C 002:096 JLINK_ClrBPEx(BPHandle = 0x00000002)  returns 0x00 (0000ms, 0643ms total)
T116C 002:096 JLINK_ClrBPEx(BPHandle = 0x00000003)  returns 0x00 (0000ms, 0643ms total)
T116C 002:096 JLINK_ReadMemU32(0xE000ED30, 0x0001 Items, ...) -- CPU_ReadMem(4 bytes @ 0xE000ED30) -- Data:  03 00 00 00  returns 0x01 (0001ms, 0644ms total)
T116C 002:097 JLINK_ReadMemU32(0xE0001028, 0x0001 Items, ...) -- CPU_ReadMem(4 bytes @ 0xE0001028) -- Data:  00 00 00 00  returns 0x01 (0001ms, 0645ms total)
T116C 002:098 JLINK_ReadMemU32(0xE0001038, 0x0001 Items, ...) -- CPU_ReadMem(4 bytes @ 0xE0001038) -- Data:  00 02 00 00  returns 0x01 (0001ms, 0646ms total)
T116C 002:099 JLINK_ReadMemU32(0xE0001048, 0x0001 Items, ...) -- CPU_ReadMem(4 bytes @ 0xE0001048) -- Data:  00 00 00 00  returns 0x01 (0000ms, 0646ms total)
T116C 002:099 JLINK_ReadMemU32(0xE0001058, 0x0001 Items, ...) -- CPU_ReadMem(4 bytes @ 0xE0001058) -- Data:  00 00 00 00  returns 0x01 (0001ms, 0647ms total)
T116C 002:100 JLINK_ReadReg(R0)  returns 0x20000588 (0001ms, 0648ms total)
T116C 002:101 JLINK_ReadReg(R1)  returns 0x20000788 (0000ms, 0648ms total)
T116C 002:101 JLINK_ReadReg(R2)  returns 0x20000788 (0000ms, 0648ms total)
T116C 002:101 JLINK_ReadReg(R3)  returns 0x20000788 (0000ms, 0648ms total)
T116C 002:101 JLINK_ReadReg(R4)  returns 0x00000000 (0000ms, 0648ms total)
T116C 002:101 JLINK_ReadReg(R5)  returns 0x20000528 (0000ms, 0648ms total)
T116C 002:101 JLINK_ReadReg(R6)  returns 0x00000000 (0000ms, 0648ms total)
T116C 002:101 JLINK_ReadReg(R7)  returns 0x00000000 (0000ms, 0648ms total)
T116C 002:101 JLINK_ReadReg(R8)  returns 0x00000000 (0000ms, 0648ms total)
T116C 002:101 JLINK_ReadReg(R9)  returns 0x20000160 (0000ms, 0648ms total)
T116C 002:101 JLINK_ReadReg(R10)  returns 0x080053E8 (0000ms, 0648ms total)
T116C 002:101 JLINK_ReadReg(R11)  returns 0x00000000 (0000ms, 0648ms total)
T116C 002:101 JLINK_ReadReg(R12)  returns 0x20000568 (0000ms, 0648ms total)
T116C 002:101 JLINK_ReadReg(R13 (SP))  returns 0x20000B88 (0000ms, 0648ms total)
T116C 002:101 JLINK_ReadReg(R14)  returns 0x080001BB (0000ms, 0648ms total)
T116C 002:101 JLINK_ReadReg(R15 (PC))  returns 0x08000406 (0000ms, 0648ms total)
T116C 002:101 JLINK_ReadReg(XPSR)  returns 0x21000000 (0000ms, 0648ms total)
T116C 002:101 JLINK_ReadReg(MSP)  returns 0x20000B88 (0000ms, 0648ms total)
T116C 002:101 JLINK_ReadReg(PSP)  returns 0x20001000 (0000ms, 0648ms total)
T116C 002:101 JLINK_ReadReg(CFBP)  returns 0x00000000 (0000ms, 0648ms total)
T154C 002:108 JLINK_ReadMem (0x08000404, 0x003C Bytes, ...) -- CPU_ReadMem(64 bytes @ 0x08000400) -- Updating C cache (64 bytes @ 0x08000400) -- Read from C cache (60 bytes @ 0x08000404) -- Data:  08 BD 08 B5 FF F7 E4 FF 00 F0 26 FA 00 F0 CA F9 ...  returns 0x00 (0001ms, 0649ms total)
T116C 010:322 JLINK_Step() -- Read from C cache (2 bytes @ 0x08000406) -- CPU_ReadMem(4 bytes @ 0xE0001004) -- CPU_WriteMem(8 bytes @ 0x20000B80) -- Simulated  returns 0x00 (0002ms, 0651ms total)
T116C 010:324 JLINK_ReadReg(R15 (PC))  returns 0x08000408 (0000ms, 0651ms total)
T116C 010:324 JLINK_ReadReg(XPSR)  returns 0x21000000 (0000ms, 0651ms total)
T116C 010:324 JLINK_ReadReg(R0)  returns 0x20000588 (0000ms, 0651ms total)
T116C 010:324 JLINK_ReadReg(R1)  returns 0x20000788 (0000ms, 0651ms total)
T116C 010:324 JLINK_ReadReg(R2)  returns 0x20000788 (0000ms, 0651ms total)
T116C 010:324 JLINK_ReadReg(R3)  returns 0x20000788 (0000ms, 0651ms total)
T116C 010:324 JLINK_ReadReg(R4)  returns 0x00000000 (0000ms, 0651ms total)
T116C 010:324 JLINK_ReadReg(R5)  returns 0x20000528 (0000ms, 0651ms total)
T116C 010:324 JLINK_ReadReg(R6)  returns 0x00000000 (0000ms, 0651ms total)
T116C 010:324 JLINK_ReadReg(R7)  returns 0x00000000 (0000ms, 0651ms total)
T116C 010:324 JLINK_ReadReg(R8)  returns 0x00000000 (0000ms, 0651ms total)
T116C 010:324 JLINK_ReadReg(R9)  returns 0x20000160 (0000ms, 0651ms total)
T116C 010:324 JLINK_ReadReg(R10)  returns 0x080053E8 (0000ms, 0651ms total)
T116C 010:324 JLINK_ReadReg(R11)  returns 0x00000000 (0000ms, 0651ms total)
T116C 010:324 JLINK_ReadReg(R12)  returns 0x20000568 (0000ms, 0651ms total)
T116C 010:324 JLINK_ReadReg(R13 (SP))  returns 0x20000B80 (0000ms, 0651ms total)
T116C 010:324 JLINK_ReadReg(R14)  returns 0x080001BB (0000ms, 0651ms total)
T116C 010:324 JLINK_ReadReg(R15 (PC))  returns 0x08000408 (0000ms, 0651ms total)
T116C 010:324 JLINK_ReadReg(XPSR)  returns 0x21000000 (0000ms, 0651ms total)
T116C 010:324 JLINK_ReadReg(MSP)  returns 0x20000B80 (0000ms, 0651ms total)
T116C 010:324 JLINK_ReadReg(PSP)  returns 0x20001000 (0000ms, 0651ms total)
T116C 010:324 JLINK_ReadReg(CFBP)  returns 0x00000000 (0000ms, 0651ms total)
T116C 010:886 JLINK_ReadMem (0x08000408, 0x003C Bytes, ...) -- CPU_ReadMem(64 bytes @ 0x08000440) -- Updating C cache (64 bytes @ 0x08000440) -- Read from C cache (60 bytes @ 0x08000408) -- Data:  FF F7 E4 FF 00 F0 26 FA 00 F0 CA F9 4F F4 FA 70 ...  returns 0x00 (0001ms, 0652ms total)
T116C 010:887 JLINK_SetBPEx(Addr = 0x0800040C, Type = 0xFFFFFFF2)  returns 0x00000004 (0000ms, 0652ms total)
T116C 010:887 JLINK_SetBPEx(Addr = 0x08001B22, Type = 0xFFFFFFF2)  returns 0x00000005 (0000ms, 0652ms total)
T116C 010:887 JLINK_SetBPEx(Addr = 0x080018B2, Type = 0xFFFFFFF2)  returns 0x00000006 (0000ms, 0652ms total)
T116C 010:887 JLINK_Go() -- CPU_WriteMem(4 bytes @ 0xE0002008) -- CPU_WriteMem(4 bytes @ 0xE0001004) (0003ms, 0655ms total)
T116C 010:991 JLINK_IsHalted()  returns TRUE (0004ms, 0659ms total)
T116C 010:995 JLINK_Halt()  returns 0x00 (0000ms, 0655ms total)
T116C 010:995 JLINK_IsHalted()  returns TRUE (0000ms, 0655ms total)
T116C 010:995 JLINK_IsHalted()  returns TRUE (0000ms, 0655ms total)
T116C 010:995 JLINK_IsHalted()  returns TRUE (0000ms, 0655ms total)
T116C 010:995 JLINK_ReadReg(R15 (PC))  returns 0x0800040C (0000ms, 0655ms total)
T116C 010:996 JLINK_ReadReg(XPSR)  returns 0x61000000 (0000ms, 0655ms total)
T116C 010:996 JLINK_ClrBPEx(BPHandle = 0x00000004)  returns 0x00 (0000ms, 0655ms total)
T116C 010:996 JLINK_ClrBPEx(BPHandle = 0x00000005)  returns 0x00 (0000ms, 0655ms total)
T116C 010:996 JLINK_ClrBPEx(BPHandle = 0x00000006)  returns 0x00 (0000ms, 0655ms total)
T116C 010:996 JLINK_ReadMemU32(0xE000ED30, 0x0001 Items, ...) -- CPU_ReadMem(4 bytes @ 0xE000ED30) -- Data:  03 00 00 00  returns 0x01 (0002ms, 0657ms total)
T116C 010:998 JLINK_ReadMemU32(0xE0001028, 0x0001 Items, ...) -- CPU_ReadMem(4 bytes @ 0xE0001028) -- Data:  00 00 00 00  returns 0x01 (0001ms, 0658ms total)
T116C 010:999 JLINK_ReadMemU32(0xE0001038, 0x0001 Items, ...) -- CPU_ReadMem(4 bytes @ 0xE0001038) -- Data:  00 02 00 00  returns 0x01 (0001ms, 0659ms total)
T116C 011:000 JLINK_ReadMemU32(0xE0001048, 0x0001 Items, ...) -- CPU_ReadMem(4 bytes @ 0xE0001048) -- Data:  00 00 00 00  returns 0x01 (0000ms, 0659ms total)
T116C 011:001 JLINK_ReadMemU32(0xE0001058, 0x0001 Items, ...) -- CPU_ReadMem(4 bytes @ 0xE0001058) -- Data:  00 00 00 00  returns 0x01 (0001ms, 0661ms total)
T116C 011:002 JLINK_ReadReg(R0)  returns 0x40011000 (0000ms, 0661ms total)
T116C 011:002 JLINK_ReadReg(R1)  returns 0x00001000 (0000ms, 0661ms total)
T116C 011:002 JLINK_ReadReg(R2)  returns 0x40011000 (0000ms, 0661ms total)
T116C 011:002 JLINK_ReadReg(R3)  returns 0x10031000 (0000ms, 0661ms total)
T116C 011:002 JLINK_ReadReg(R4)  returns 0x00000000 (0000ms, 0661ms total)
T116C 011:002 JLINK_ReadReg(R5)  returns 0x20000528 (0000ms, 0661ms total)
T116C 011:002 JLINK_ReadReg(R6)  returns 0x00000000 (0000ms, 0661ms total)
T116C 011:002 JLINK_ReadReg(R7)  returns 0x00000000 (0000ms, 0661ms total)
T116C 011:002 JLINK_ReadReg(R8)  returns 0x00000000 (0000ms, 0661ms total)
T116C 011:002 JLINK_ReadReg(R9)  returns 0x20000160 (0000ms, 0661ms total)
T116C 011:002 JLINK_ReadReg(R10)  returns 0x080053E8 (0000ms, 0661ms total)
T116C 011:002 JLINK_ReadReg(R11)  returns 0x00000000 (0000ms, 0661ms total)
T116C 011:002 JLINK_ReadReg(R12)  returns 0x00001000 (0000ms, 0661ms total)
T116C 011:002 JLINK_ReadReg(R13 (SP))  returns 0x20000B80 (0000ms, 0661ms total)
T116C 011:002 JLINK_ReadReg(R14)  returns 0x08000405 (0000ms, 0661ms total)
T116C 011:002 JLINK_ReadReg(R15 (PC))  returns 0x0800040C (0000ms, 0661ms total)
T116C 011:002 JLINK_ReadReg(XPSR)  returns 0x61000000 (0000ms, 0661ms total)
T116C 011:002 JLINK_ReadReg(MSP)  returns 0x20000B80 (0000ms, 0661ms total)
T116C 011:002 JLINK_ReadReg(PSP)  returns 0x20001000 (0000ms, 0661ms total)
T116C 011:002 JLINK_ReadReg(CFBP)  returns 0x00000000 (0001ms, 0662ms total)
T116C 011:239 JLINK_ReadMem (0x0800040C, 0x003C Bytes, ...) -- CPU_ReadMem(128 bytes @ 0x08000400) -- Updating C cache (128 bytes @ 0x08000400) -- Read from C cache (60 bytes @ 0x0800040C) -- Data:  00 F0 26 FA 00 F0 CA F9 4F F4 FA 70 00 F0 FC F9 ...  returns 0x00 (0002ms, 0664ms total)
T116C 011:241 JLINK_SetBPEx(Addr = 0x08000410, Type = 0xFFFFFFF2)  returns 0x00000007 (0000ms, 0664ms total)
T116C 011:241 JLINK_SetBPEx(Addr = 0x08001B22, Type = 0xFFFFFFF2)  returns 0x00000008 (0000ms, 0664ms total)
T116C 011:241 JLINK_SetBPEx(Addr = 0x080018B2, Type = 0xFFFFFFF2)  returns 0x00000009 (0000ms, 0664ms total)
T116C 011:241 JLINK_Go() -- CPU_WriteMem(4 bytes @ 0xE0002008) (0001ms, 0665ms total)
T116C 011:343 JLINK_IsHalted()  returns TRUE (0005ms, 0670ms total)
T116C 011:348 JLINK_Halt()  returns 0x00 (0000ms, 0665ms total)
T116C 011:348 JLINK_IsHalted()  returns TRUE (0000ms, 0665ms total)
T116C 011:348 JLINK_IsHalted()  returns TRUE (0000ms, 0665ms total)
T116C 011:348 JLINK_IsHalted()  returns TRUE (0000ms, 0665ms total)
T116C 011:348 JLINK_ReadReg(R15 (PC))  returns 0x08000410 (0000ms, 0665ms total)
T116C 011:348 JLINK_ReadReg(XPSR)  returns 0x01000000 (0000ms, 0665ms total)
T116C 011:348 JLINK_ClrBPEx(BPHandle = 0x00000007)  returns 0x00 (0000ms, 0665ms total)
T116C 011:348 JLINK_ClrBPEx(BPHandle = 0x00000008)  returns 0x00 (0000ms, 0665ms total)
T116C 011:348 JLINK_ClrBPEx(BPHandle = 0x00000009)  returns 0x00 (0000ms, 0665ms total)
T116C 011:348 JLINK_ReadMemU32(0xE000ED30, 0x0001 Items, ...) -- CPU_ReadMem(4 bytes @ 0xE000ED30) -- Data:  03 00 00 00  returns 0x01 (0001ms, 0666ms total)
T116C 011:349 JLINK_ReadMemU32(0xE0001028, 0x0001 Items, ...) -- CPU_ReadMem(4 bytes @ 0xE0001028) -- Data:  00 00 00 00  returns 0x01 (0000ms, 0666ms total)
T116C 011:349 JLINK_ReadMemU32(0xE0001038, 0x0001 Items, ...) -- CPU_ReadMem(4 bytes @ 0xE0001038) -- Data:  00 02 00 00  returns 0x01 (0001ms, 0667ms total)
T116C 011:350 JLINK_ReadMemU32(0xE0001048, 0x0001 Items, ...) -- CPU_ReadMem(4 bytes @ 0xE0001048) -- Data:  00 00 00 00  returns 0x01 (0001ms, 0668ms total)
T116C 011:351 JLINK_ReadMemU32(0xE0001058, 0x0001 Items, ...) -- CPU_ReadMem(4 bytes @ 0xE0001058) -- Data:  00 00 00 00  returns 0x01 (0001ms, 0669ms total)
T116C 011:352 JLINK_ReadReg(R0)  returns 0x40011800 (0000ms, 0669ms total)
T116C 011:352 JLINK_ReadReg(R1)  returns 0x00000002 (0000ms, 0669ms total)
T116C 011:352 JLINK_ReadReg(R2)  returns 0x40011800 (0000ms, 0669ms total)
T116C 011:352 JLINK_ReadReg(R3)  returns 0x10030002 (0000ms, 0669ms total)
T116C 011:352 JLINK_ReadReg(R4)  returns 0x00000000 (0000ms, 0669ms total)
T116C 011:352 JLINK_ReadReg(R5)  returns 0x20000528 (0000ms, 0669ms total)
T116C 011:352 JLINK_ReadReg(R6)  returns 0x00000000 (0000ms, 0669ms total)
T116C 011:352 JLINK_ReadReg(R7)  returns 0x00000000 (0000ms, 0669ms total)
T116C 011:352 JLINK_ReadReg(R8)  returns 0x00000000 (0000ms, 0669ms total)
T116C 011:352 JLINK_ReadReg(R9)  returns 0x20000160 (0000ms, 0669ms total)
T116C 011:352 JLINK_ReadReg(R10)  returns 0x080053E8 (0000ms, 0669ms total)
T116C 011:352 JLINK_ReadReg(R11)  returns 0x00000000 (0000ms, 0669ms total)
T116C 011:352 JLINK_ReadReg(R12)  returns 0x00000002 (0000ms, 0669ms total)
T116C 011:352 JLINK_ReadReg(R13 (SP))  returns 0x20000B80 (0001ms, 0670ms total)
T116C 011:353 JLINK_ReadReg(R14)  returns 0x08000889 (0000ms, 0670ms total)
T116C 011:353 JLINK_ReadReg(R15 (PC))  returns 0x08000410 (0000ms, 0670ms total)
T116C 011:353 JLINK_ReadReg(XPSR)  returns 0x01000000 (0000ms, 0670ms total)
T116C 011:353 JLINK_ReadReg(MSP)  returns 0x20000B80 (0000ms, 0670ms total)
T116C 011:353 JLINK_ReadReg(PSP)  returns 0x20001000 (0000ms, 0670ms total)
T116C 011:353 JLINK_ReadReg(CFBP)  returns 0x00000000 (0000ms, 0670ms total)
T154C 011:364 JLINK_ReadMem (0x0800040C, 0x003C Bytes, ...) -- CPU_ReadMem(128 bytes @ 0x08000400) -- Updating C cache (128 bytes @ 0x08000400) -- Read from C cache (60 bytes @ 0x0800040C) -- Data:  00 F0 26 FA 00 F0 CA F9 4F F4 FA 70 00 F0 FC F9 ...  returns 0x00 (0003ms, 0673ms total)
T116C 011:504 JLINK_SetBPEx(Addr = 0x08000414, Type = 0xFFFFFFF2)  returns 0x0000000A (0000ms, 0673ms total)
T116C 011:504 JLINK_SetBPEx(Addr = 0x08001B22, Type = 0xFFFFFFF2)  returns 0x0000000B (0000ms, 0673ms total)
T116C 011:504 JLINK_SetBPEx(Addr = 0x080018B2, Type = 0xFFFFFFF2)  returns 0x0000000C (0000ms, 0673ms total)
T116C 011:504 JLINK_Go() -- CPU_WriteMem(4 bytes @ 0xE0002008) (0001ms, 0674ms total)
T116C 011:607 JLINK_IsHalted()  returns TRUE (0004ms, 0678ms total)
T116C 011:611 JLINK_Halt()  returns 0x00 (0000ms, 0674ms total)
T116C 011:611 JLINK_IsHalted()  returns TRUE (0000ms, 0674ms total)
T116C 011:611 JLINK_IsHalted()  returns TRUE (0000ms, 0674ms total)
T116C 011:612 JLINK_IsHalted()  returns TRUE (0000ms, 0674ms total)
T116C 011:612 JLINK_ReadReg(R15 (PC))  returns 0x08000414 (0000ms, 0674ms total)
T116C 011:612 JLINK_ReadReg(XPSR)  returns 0x61000000 (0000ms, 0674ms total)
T116C 011:612 JLINK_ClrBPEx(BPHandle = 0x0000000A)  returns 0x00 (0000ms, 0674ms total)
T116C 011:612 JLINK_ClrBPEx(BPHandle = 0x0000000B)  returns 0x00 (0000ms, 0674ms total)
T116C 011:612 JLINK_ClrBPEx(BPHandle = 0x0000000C)  returns 0x00 (0000ms, 0674ms total)
T116C 011:612 JLINK_ReadMemU32(0xE000ED30, 0x0001 Items, ...) -- CPU_ReadMem(4 bytes @ 0xE000ED30) -- Data:  03 00 00 00  returns 0x01 (0001ms, 0675ms total)
T116C 011:613 JLINK_ReadMemU32(0xE0001028, 0x0001 Items, ...) -- CPU_ReadMem(4 bytes @ 0xE0001028) -- Data:  00 00 00 00  returns 0x01 (0001ms, 0676ms total)
T116C 011:614 JLINK_ReadMemU32(0xE0001038, 0x0001 Items, ...) -- CPU_ReadMem(4 bytes @ 0xE0001038) -- Data:  00 02 00 00  returns 0x01 (0000ms, 0676ms total)
T116C 011:614 JLINK_ReadMemU32(0xE0001048, 0x0001 Items, ...) -- CPU_ReadMem(4 bytes @ 0xE0001048) -- Data:  00 00 00 00  returns 0x01 (0001ms, 0677ms total)
T116C 011:615 JLINK_ReadMemU32(0xE0001058, 0x0001 Items, ...) -- CPU_ReadMem(4 bytes @ 0xE0001058) -- Data:  00 00 00 00  returns 0x01 (0001ms, 0678ms total)
T116C 011:616 JLINK_ReadReg(R0)  returns 0x00000006 (0000ms, 0678ms total)
T116C 011:616 JLINK_ReadReg(R1)  returns 0xE000E000 (0000ms, 0678ms total)
T116C 011:616 JLINK_ReadReg(R2)  returns 0xE000E000 (0000ms, 0678ms total)
T116C 011:616 JLINK_ReadReg(R3)  returns 0xE000ED18 (0000ms, 0678ms total)
T116C 011:616 JLINK_ReadReg(R4)  returns 0x00000000 (0000ms, 0678ms total)
T116C 011:616 JLINK_ReadReg(R5)  returns 0x20000528 (0000ms, 0678ms total)
T116C 011:616 JLINK_ReadReg(R6)  returns 0x00000000 (0000ms, 0678ms total)
T116C 011:616 JLINK_ReadReg(R7)  returns 0x00000000 (0001ms, 0679ms total)
T116C 011:617 JLINK_ReadReg(R8)  returns 0x00000000 (0000ms, 0679ms total)
T116C 011:617 JLINK_ReadReg(R9)  returns 0x20000160 (0000ms, 0679ms total)
T116C 011:617 JLINK_ReadReg(R10)  returns 0x080053E8 (0000ms, 0679ms total)
T116C 011:617 JLINK_ReadReg(R11)  returns 0x00000000 (0000ms, 0679ms total)
T116C 011:617 JLINK_ReadReg(R12)  returns 0x00000002 (0000ms, 0679ms total)
T116C 011:617 JLINK_ReadReg(R13 (SP))  returns 0x20000B80 (0000ms, 0679ms total)
T116C 011:617 JLINK_ReadReg(R14)  returns 0x08000415 (0000ms, 0679ms total)
T116C 011:617 JLINK_ReadReg(R15 (PC))  returns 0x08000414 (0000ms, 0679ms total)
T116C 011:617 JLINK_ReadReg(XPSR)  returns 0x61000000 (0000ms, 0679ms total)
T116C 011:617 JLINK_ReadReg(MSP)  returns 0x20000B80 (0000ms, 0679ms total)
T116C 011:617 JLINK_ReadReg(PSP)  returns 0x20001000 (0000ms, 0679ms total)
T116C 011:617 JLINK_ReadReg(CFBP)  returns 0x00000000 (0000ms, 0679ms total)
T116C 011:766 JLINK_ReadMem (0x08000414, 0x003C Bytes, ...) -- CPU_ReadMem(128 bytes @ 0x08000400) -- Updating C cache (128 bytes @ 0x08000400) -- Read from C cache (60 bytes @ 0x08000414) -- Data:  4F F4 FA 70 00 F0 FC F9 00 F0 EA FB 00 20 00 F0 ...  returns 0x00 (0002ms, 0681ms total)
T116C 011:768 JLINK_Step() -- Read from C cache (2 bytes @ 0x08000414) -- CPU_ReadMem(4 bytes @ 0xE0001004) -- Read from C cache (2 bytes @ 0x08000416) -- Simulated  returns 0x00 (0001ms, 0682ms total)
T116C 011:769 JLINK_ReadReg(R15 (PC))  returns 0x08000418 (0000ms, 0682ms total)
T116C 011:769 JLINK_ReadReg(XPSR)  returns 0x61000000 (0000ms, 0682ms total)
T116C 011:769 JLINK_SetBPEx(Addr = 0x0800041C, Type = 0xFFFFFFF2)  returns 0x0000000D (0000ms, 0682ms total)
T116C 011:769 JLINK_SetBPEx(Addr = 0x08001B22, Type = 0xFFFFFFF2)  returns 0x0000000E (0000ms, 0682ms total)
T116C 011:769 JLINK_SetBPEx(Addr = 0x080018B2, Type = 0xFFFFFFF2)  returns 0x0000000F (0000ms, 0682ms total)
T116C 011:769 JLINK_Go() -- CPU_WriteMem(4 bytes @ 0xE0002008) -- CPU_WriteMem(4 bytes @ 0xE0001004) (0002ms, 0684ms total)
T116C 011:872 JLINK_IsHalted()  returns FALSE (0000ms, 0684ms total)
T116C 011:974 JLINK_IsHalted()  returns FALSE (0000ms, 0684ms total)
T116C 012:075 JLINK_IsHalted()  returns FALSE (0000ms, 0684ms total)
T116C 012:176 JLINK_IsHalted()  returns FALSE (0000ms, 0684ms total)
T116C 012:277 JLINK_IsHalted()  returns TRUE (0004ms, 0688ms total)
T116C 012:281 JLINK_Halt()  returns 0x00 (0001ms, 0685ms total)
T116C 012:282 JLINK_IsHalted()  returns TRUE (0000ms, 0685ms total)
T116C 012:282 JLINK_IsHalted()  returns TRUE (0000ms, 0685ms total)
T116C 012:282 JLINK_IsHalted()  returns TRUE (0000ms, 0685ms total)
T116C 012:282 JLINK_ReadReg(R15 (PC))  returns 0x0800041C (0000ms, 0685ms total)
T116C 012:282 JLINK_ReadReg(XPSR)  returns 0x61000000 (0000ms, 0685ms total)
T116C 012:282 JLINK_ClrBPEx(BPHandle = 0x0000000D)  returns 0x00 (0000ms, 0685ms total)
T116C 012:282 JLINK_ClrBPEx(BPHandle = 0x0000000E)  returns 0x00 (0000ms, 0685ms total)
T116C 012:282 JLINK_ClrBPEx(BPHandle = 0x0000000F)  returns 0x00 (0000ms, 0685ms total)
T116C 012:282 JLINK_ReadMemU32(0xE000ED30, 0x0001 Items, ...) -- CPU_ReadMem(4 bytes @ 0xE000ED30) -- Data:  03 00 00 00  returns 0x01 (0001ms, 0686ms total)
T116C 012:283 JLINK_ReadMemU32(0xE0001028, 0x0001 Items, ...) -- CPU_ReadMem(4 bytes @ 0xE0001028) -- Data:  00 00 00 00  returns 0x01 (0001ms, 0687ms total)
T116C 012:284 JLINK_ReadMemU32(0xE0001038, 0x0001 Items, ...) -- CPU_ReadMem(4 bytes @ 0xE0001038) -- Data:  00 02 00 00  returns 0x01 (0001ms, 0688ms total)
T116C 012:285 JLINK_ReadMemU32(0xE0001048, 0x0001 Items, ...) -- CPU_ReadMem(4 bytes @ 0xE0001048) -- Data:  00 00 00 00  returns 0x01 (0000ms, 0688ms total)
T116C 012:285 JLINK_ReadMemU32(0xE0001058, 0x0001 Items, ...) -- CPU_ReadMem(4 bytes @ 0xE0001058) -- Data:  00 00 00 00  returns 0x01 (0001ms, 0689ms total)
T116C 012:286 JLINK_ReadReg(R0)  returns 0x00000000 (0000ms, 0689ms total)
T116C 012:286 JLINK_ReadReg(R1)  returns 0xE000E000 (0000ms, 0689ms total)
T116C 012:286 JLINK_ReadReg(R2)  returns 0xE000E000 (0000ms, 0689ms total)
T116C 012:286 JLINK_ReadReg(R3)  returns 0x000001F4 (0000ms, 0689ms total)
T116C 012:286 JLINK_ReadReg(R4)  returns 0x00000000 (0001ms, 0690ms total)
T116C 012:287 JLINK_ReadReg(R5)  returns 0x20000528 (0000ms, 0690ms total)
T116C 012:287 JLINK_ReadReg(R6)  returns 0x00000000 (0000ms, 0690ms total)
T116C 012:287 JLINK_ReadReg(R7)  returns 0x00000000 (0000ms, 0690ms total)
T116C 012:287 JLINK_ReadReg(R8)  returns 0x00000000 (0000ms, 0690ms total)
T116C 012:287 JLINK_ReadReg(R9)  returns 0x20000160 (0000ms, 0690ms total)
T116C 012:287 JLINK_ReadReg(R10)  returns 0x080053E8 (0000ms, 0690ms total)
T116C 012:287 JLINK_ReadReg(R11)  returns 0x00000000 (0000ms, 0690ms total)
T116C 012:287 JLINK_ReadReg(R12)  returns 0x00000002 (0000ms, 0690ms total)
T116C 012:287 JLINK_ReadReg(R13 (SP))  returns 0x20000B80 (0000ms, 0690ms total)
T116C 012:287 JLINK_ReadReg(R14)  returns 0x0800041D (0000ms, 0690ms total)
T116C 012:287 JLINK_ReadReg(R15 (PC))  returns 0x0800041C (0000ms, 0690ms total)
T116C 012:287 JLINK_ReadReg(XPSR)  returns 0x61000000 (0000ms, 0690ms total)
T116C 012:287 JLINK_ReadReg(MSP)  returns 0x20000B80 (0000ms, 0690ms total)
T116C 012:287 JLINK_ReadReg(PSP)  returns 0x20001000 (0000ms, 0690ms total)
T116C 012:287 JLINK_ReadReg(CFBP)  returns 0x00000000 (0000ms, 0690ms total)
T154C 012:298 JLINK_ReadMem (0x08000418, 0x003C Bytes, ...) -- CPU_ReadMem(128 bytes @ 0x08000400) -- Updating C cache (128 bytes @ 0x08000400) -- Read from C cache (60 bytes @ 0x08000418) -- Data:  00 F0 FC F9 00 F0 EA FB 00 20 00 F0 1E FC 4E A2 ...  returns 0x00 (0003ms, 0693ms total)
T116C 012:424 JLINK_SetBPEx(Addr = 0x08000420, Type = 0xFFFFFFF2)  returns 0x00000010 (0000ms, 0693ms total)
T116C 012:424 JLINK_SetBPEx(Addr = 0x08001B22, Type = 0xFFFFFFF2)  returns 0x00000011 (0000ms, 0693ms total)
T116C 012:424 JLINK_SetBPEx(Addr = 0x080018B2, Type = 0xFFFFFFF2)  returns 0x00000012 (0000ms, 0693ms total)
T116C 012:424 JLINK_Go() -- CPU_WriteMem(4 bytes @ 0xE0002008) (0001ms, 0694ms total)
T116C 012:526 JLINK_IsHalted()  returns TRUE (0005ms, 0699ms total)
T116C 012:531 JLINK_Halt()  returns 0x00 (0000ms, 0694ms total)
T116C 012:531 JLINK_IsHalted()  returns TRUE (0000ms, 0694ms total)
T116C 012:531 JLINK_IsHalted()  returns TRUE (0000ms, 0694ms total)
T116C 012:531 JLINK_IsHalted()  returns TRUE (0000ms, 0694ms total)
T116C 012:531 JLINK_ReadReg(R15 (PC))  returns 0x08000420 (0000ms, 0694ms total)
T116C 012:531 JLINK_ReadReg(XPSR)  returns 0x21000000 (0000ms, 0694ms total)
T116C 012:531 JLINK_ClrBPEx(BPHandle = 0x00000010)  returns 0x00 (0000ms, 0694ms total)
T116C 012:531 JLINK_ClrBPEx(BPHandle = 0x00000011)  returns 0x00 (0000ms, 0694ms total)
T116C 012:531 JLINK_ClrBPEx(BPHandle = 0x00000012)  returns 0x00 (0000ms, 0694ms total)
T116C 012:531 JLINK_ReadMemU32(0xE000ED30, 0x0001 Items, ...) -- CPU_ReadMem(4 bytes @ 0xE000ED30) -- Data:  03 00 00 00  returns 0x01 (0001ms, 0695ms total)
T116C 012:532 JLINK_ReadMemU32(0xE0001028, 0x0001 Items, ...) -- CPU_ReadMem(4 bytes @ 0xE0001028) -- Data:  00 00 00 00  returns 0x01 (0001ms, 0696ms total)
T116C 012:533 JLINK_ReadMemU32(0xE0001038, 0x0001 Items, ...) -- CPU_ReadMem(4 bytes @ 0xE0001038) -- Data:  00 02 00 00  returns 0x01 (0001ms, 0697ms total)
T116C 012:534 JLINK_ReadMemU32(0xE0001048, 0x0001 Items, ...) -- CPU_ReadMem(4 bytes @ 0xE0001048) -- Data:  00 00 00 00  returns 0x01 (0001ms, 0698ms total)
T116C 012:535 JLINK_ReadMemU32(0xE0001058, 0x0001 Items, ...) -- CPU_ReadMem(4 bytes @ 0xE0001058) -- Data:  00 00 00 00  returns 0x01 (0000ms, 0698ms total)
T116C 012:536 JLINK_ReadReg(R0)  returns 0x40010C00 (0000ms, 0698ms total)
T116C 012:536 JLINK_ReadReg(R1)  returns 0x00000002 (0000ms, 0698ms total)
T116C 012:536 JLINK_ReadReg(R2)  returns 0x40010C00 (0000ms, 0698ms total)
T116C 012:536 JLINK_ReadReg(R3)  returns 0x10030020 (0000ms, 0698ms total)
T116C 012:536 JLINK_ReadReg(R4)  returns 0x00000000 (0000ms, 0698ms total)
T116C 012:536 JLINK_ReadReg(R5)  returns 0x20000528 (0000ms, 0698ms total)
T116C 012:536 JLINK_ReadReg(R6)  returns 0x00000000 (0000ms, 0698ms total)
T116C 012:536 JLINK_ReadReg(R7)  returns 0x00000000 (0000ms, 0698ms total)
T116C 012:536 JLINK_ReadReg(R8)  returns 0x00000000 (0000ms, 0698ms total)
T116C 012:536 JLINK_ReadReg(R9)  returns 0x20000160 (0000ms, 0698ms total)
T116C 012:536 JLINK_ReadReg(R10)  returns 0x080053E8 (0000ms, 0698ms total)
T116C 012:536 JLINK_ReadReg(R11)  returns 0x00000000 (0000ms, 0698ms total)
T116C 012:536 JLINK_ReadReg(R12)  returns 0x00000001 (0000ms, 0698ms total)
T116C 012:536 JLINK_ReadReg(R13 (SP))  returns 0x20000B80 (0000ms, 0698ms total)
T116C 012:536 JLINK_ReadReg(R14)  returns 0x08000AD5 (0000ms, 0698ms total)
T116C 012:536 JLINK_ReadReg(R15 (PC))  returns 0x08000420 (0000ms, 0698ms total)
T116C 012:536 JLINK_ReadReg(XPSR)  returns 0x21000000 (0000ms, 0698ms total)
T116C 012:536 JLINK_ReadReg(MSP)  returns 0x20000B80 (0000ms, 0698ms total)
T116C 012:536 JLINK_ReadReg(PSP)  returns 0x20001000 (0000ms, 0698ms total)
T116C 012:536 JLINK_ReadReg(CFBP)  returns 0x00000000 (0000ms, 0698ms total)
T116C 013:423 JLINK_ReadMem (0x08000420, 0x003C Bytes, ...) -- CPU_ReadMem(128 bytes @ 0x08000400) -- Updating C cache (128 bytes @ 0x08000400) -- Read from C cache (60 bytes @ 0x08000420) -- Data:  00 20 00 F0 1E FC 4E A2 01 21 02 20 00 F0 06 FD ...  returns 0x00 (0002ms, 0700ms total)
T116C 013:425 JLINK_Step() -- Read from C cache (2 bytes @ 0x08000420) -- CPU_ReadMem(4 bytes @ 0xE0001004) -- Simulated  returns 0x00 (0001ms, 0701ms total)
T116C 013:426 JLINK_ReadReg(R15 (PC))  returns 0x08000422 (0000ms, 0701ms total)
T116C 013:426 JLINK_ReadReg(XPSR)  returns 0x61000000 (0000ms, 0701ms total)
T116C 013:426 JLINK_SetBPEx(Addr = 0x08000426, Type = 0xFFFFFFF2)  returns 0x00000013 (0000ms, 0701ms total)
T116C 013:426 JLINK_SetBPEx(Addr = 0x08001B22, Type = 0xFFFFFFF2)  returns 0x00000014 (0000ms, 0701ms total)
T116C 013:426 JLINK_SetBPEx(Addr = 0x080018B2, Type = 0xFFFFFFF2)  returns 0x00000015 (0000ms, 0701ms total)
T116C 013:426 JLINK_Go() -- CPU_WriteMem(4 bytes @ 0xE0002008) -- CPU_WriteMem(4 bytes @ 0xE0001004) (0003ms, 0704ms total)
T116C 013:529 JLINK_IsHalted()  returns TRUE (0005ms, 0709ms total)
T116C 013:534 JLINK_Halt()  returns 0x00 (0000ms, 0704ms total)
T116C 013:534 JLINK_IsHalted()  returns TRUE (0000ms, 0704ms total)
T116C 013:534 JLINK_IsHalted()  returns TRUE (0000ms, 0704ms total)
T116C 013:534 JLINK_IsHalted()  returns TRUE (0000ms, 0704ms total)
T116C 013:534 JLINK_ReadReg(R15 (PC))  returns 0x08000426 (0000ms, 0704ms total)
T116C 013:534 JLINK_ReadReg(XPSR)  returns 0x61000000 (0000ms, 0704ms total)
T116C 013:534 JLINK_ClrBPEx(BPHandle = 0x00000013)  returns 0x00 (0000ms, 0704ms total)
T116C 013:534 JLINK_ClrBPEx(BPHandle = 0x00000014)  returns 0x00 (0000ms, 0704ms total)
T116C 013:534 JLINK_ClrBPEx(BPHandle = 0x00000015)  returns 0x00 (0000ms, 0704ms total)
T116C 013:534 JLINK_ReadMemU32(0xE000ED30, 0x0001 Items, ...) -- CPU_ReadMem(4 bytes @ 0xE000ED30) -- Data:  03 00 00 00  returns 0x01 (0001ms, 0705ms total)
T116C 013:535 JLINK_ReadMemU32(0xE0001028, 0x0001 Items, ...) -- CPU_ReadMem(4 bytes @ 0xE0001028) -- Data:  00 00 00 00  returns 0x01 (0001ms, 0706ms total)
T116C 013:536 JLINK_ReadMemU32(0xE0001038, 0x0001 Items, ...) -- CPU_ReadMem(4 bytes @ 0xE0001038) -- Data:  00 02 00 00  returns 0x01 (0001ms, 0707ms total)
T116C 013:537 JLINK_ReadMemU32(0xE0001048, 0x0001 Items, ...) -- CPU_ReadMem(4 bytes @ 0xE0001048) -- Data:  00 00 00 00  returns 0x01 (0001ms, 0708ms total)
T116C 013:538 JLINK_ReadMemU32(0xE0001058, 0x0001 Items, ...) -- CPU_ReadMem(4 bytes @ 0xE0001058) -- Data:  00 00 00 00  returns 0x01 (0001ms, 0709ms total)
T116C 013:539 JLINK_ReadReg(R0)  returns 0x00000040 (0000ms, 0709ms total)
T116C 013:539 JLINK_ReadReg(R1)  returns 0x00000002 (0000ms, 0709ms total)
T116C 013:539 JLINK_ReadReg(R2)  returns 0x40010C00 (0000ms, 0709ms total)
T116C 013:539 JLINK_ReadReg(R3)  returns 0x10030001 (0000ms, 0709ms total)
T116C 013:539 JLINK_ReadReg(R4)  returns 0x00000000 (0000ms, 0709ms total)
T116C 013:539 JLINK_ReadReg(R5)  returns 0x20000528 (0000ms, 0709ms total)
T116C 013:539 JLINK_ReadReg(R6)  returns 0x00000000 (0000ms, 0709ms total)
T116C 013:539 JLINK_ReadReg(R7)  returns 0x00000000 (0000ms, 0709ms total)
T116C 013:539 JLINK_ReadReg(R8)  returns 0x00000000 (0000ms, 0709ms total)
T116C 013:539 JLINK_ReadReg(R9)  returns 0x20000160 (0000ms, 0709ms total)
T116C 013:539 JLINK_ReadReg(R10)  returns 0x080053E8 (0000ms, 0709ms total)
T116C 013:539 JLINK_ReadReg(R11)  returns 0x00000000 (0000ms, 0709ms total)
T116C 013:539 JLINK_ReadReg(R12)  returns 0x00000001 (0000ms, 0709ms total)
T116C 013:539 JLINK_ReadReg(R13 (SP))  returns 0x20000B80 (0000ms, 0709ms total)
T116C 013:539 JLINK_ReadReg(R14)  returns 0x08000AD5 (0000ms, 0709ms total)
T116C 013:539 JLINK_ReadReg(R15 (PC))  returns 0x08000426 (0000ms, 0709ms total)
T116C 013:539 JLINK_ReadReg(XPSR)  returns 0x61000000 (0000ms, 0709ms total)
T116C 013:539 JLINK_ReadReg(MSP)  returns 0x20000B80 (0000ms, 0709ms total)
T116C 013:539 JLINK_ReadReg(PSP)  returns 0x20001000 (0000ms, 0709ms total)
T116C 013:539 JLINK_ReadReg(CFBP)  returns 0x00000000 (0000ms, 0709ms total)
T154C 013:549 JLINK_ReadMem (0x08000422, 0x0002 Bytes, ...) -- CPU_ReadMem(64 bytes @ 0x08000400) -- Updating C cache (64 bytes @ 0x08000400) -- Read from C cache (2 bytes @ 0x08000422) -- Data:  00 F0  returns 0x00 (0001ms, 0710ms total)
T154C 013:550 JLINK_ReadMem (0x08000424, 0x003C Bytes, ...) -- CPU_ReadMem(64 bytes @ 0x08000440) -- Updating C cache (64 bytes @ 0x08000440) -- Read from C cache (60 bytes @ 0x08000424) -- Data:  1E FC 4E A2 01 21 02 20 00 F0 06 FD 02 21 4F 48 ...  returns 0x00 (0001ms, 0711ms total)
T116C 013:776 JLINK_Step() -- Read from C cache (2 bytes @ 0x08000426) -- CPU_ReadMem(4 bytes @ 0xE0001004) -- Simulated  returns 0x00 (0001ms, 0712ms total)
T116C 013:777 JLINK_ReadReg(R15 (PC))  returns 0x08000428 (0000ms, 0712ms total)
T116C 013:777 JLINK_ReadReg(XPSR)  returns 0x61000000 (0000ms, 0712ms total)
T116C 013:777 JLINK_Step() -- Read from C cache (2 bytes @ 0x08000428) -- Simulated  returns 0x00 (0000ms, 0712ms total)
T116C 013:777 JLINK_ReadReg(R15 (PC))  returns 0x0800042A (0000ms, 0712ms total)
T116C 013:777 JLINK_ReadReg(XPSR)  returns 0x21000000 (0000ms, 0712ms total)
T116C 013:777 JLINK_Step() -- Read from C cache (2 bytes @ 0x0800042A) -- Simulated  returns 0x00 (0000ms, 0712ms total)
T116C 013:777 JLINK_ReadReg(R15 (PC))  returns 0x0800042C (0000ms, 0712ms total)
T116C 013:777 JLINK_ReadReg(XPSR)  returns 0x21000000 (0000ms, 0712ms total)
T116C 013:777 JLINK_SetBPEx(Addr = 0x08000430, Type = 0xFFFFFFF2)  returns 0x00000016 (0000ms, 0712ms total)
T116C 013:777 JLINK_SetBPEx(Addr = 0x08001B22, Type = 0xFFFFFFF2)  returns 0x00000017 (0000ms, 0712ms total)
T116C 013:777 JLINK_SetBPEx(Addr = 0x080018B2, Type = 0xFFFFFFF2)  returns 0x00000018 (0000ms, 0712ms total)
T116C 013:777 JLINK_Go() -- CPU_WriteMem(4 bytes @ 0xE0002008) -- CPU_WriteMem(4 bytes @ 0xE0001004) (0002ms, 0714ms total)
T116C 013:880 JLINK_IsHalted()  returns TRUE (0005ms, 0719ms total)
T116C 013:885 JLINK_Halt()  returns 0x00 (0000ms, 0714ms total)
T116C 013:885 JLINK_IsHalted()  returns TRUE (0000ms, 0714ms total)
T116C 013:885 JLINK_IsHalted()  returns TRUE (0000ms, 0714ms total)
T116C 013:885 JLINK_IsHalted()  returns TRUE (0000ms, 0714ms total)
T116C 013:885 JLINK_ReadReg(R15 (PC))  returns 0x08000430 (0000ms, 0714ms total)
T116C 013:885 JLINK_ReadReg(XPSR)  returns 0x61000000 (0000ms, 0714ms total)
T116C 013:885 JLINK_ClrBPEx(BPHandle = 0x00000016)  returns 0x00 (0000ms, 0714ms total)
T116C 013:885 JLINK_ClrBPEx(BPHandle = 0x00000017)  returns 0x00 (0000ms, 0714ms total)
T116C 013:885 JLINK_ClrBPEx(BPHandle = 0x00000018)  returns 0x00 (0000ms, 0714ms total)
T116C 013:885 JLINK_ReadMemU32(0xE000ED30, 0x0001 Items, ...) -- CPU_ReadMem(4 bytes @ 0xE000ED30) -- Data:  03 00 00 00  returns 0x01 (0001ms, 0715ms total)
T116C 013:886 JLINK_ReadMemU32(0xE0001028, 0x0001 Items, ...) -- CPU_ReadMem(4 bytes @ 0xE0001028) -- Data:  00 00 00 00  returns 0x01 (0001ms, 0716ms total)
T116C 013:887 JLINK_ReadMemU32(0xE0001038, 0x0001 Items, ...) -- CPU_ReadMem(4 bytes @ 0xE0001038) -- Data:  00 02 00 00  returns 0x01 (0001ms, 0717ms total)
T116C 013:888 JLINK_ReadMemU32(0xE0001048, 0x0001 Items, ...) -- CPU_ReadMem(4 bytes @ 0xE0001048) -- Data:  00 00 00 00  returns 0x01 (0001ms, 0718ms total)
T116C 013:889 JLINK_ReadMemU32(0xE0001058, 0x0001 Items, ...) -- CPU_ReadMem(4 bytes @ 0xE0001058) -- Data:  00 00 00 00  returns 0x01 (0001ms, 0719ms total)
T116C 013:890 JLINK_ReadReg(R0)  returns 0x00000000 (0000ms, 0719ms total)
T116C 013:890 JLINK_ReadReg(R1)  returns 0x00000002 (0000ms, 0719ms total)
T116C 013:890 JLINK_ReadReg(R2)  returns 0x40010C00 (0000ms, 0719ms total)
T116C 013:890 JLINK_ReadReg(R3)  returns 0x10030001 (0000ms, 0719ms total)
T116C 013:890 JLINK_ReadReg(R4)  returns 0x00000000 (0000ms, 0719ms total)
T116C 013:890 JLINK_ReadReg(R5)  returns 0x20000528 (0000ms, 0719ms total)
T116C 013:890 JLINK_ReadReg(R6)  returns 0x00000000 (0000ms, 0719ms total)
T116C 013:890 JLINK_ReadReg(R7)  returns 0x00000000 (0000ms, 0719ms total)
T116C 013:890 JLINK_ReadReg(R8)  returns 0x00000000 (0000ms, 0719ms total)
T116C 013:890 JLINK_ReadReg(R9)  returns 0x20000160 (0000ms, 0719ms total)
T116C 013:890 JLINK_ReadReg(R10)  returns 0x080053E8 (0000ms, 0719ms total)
T116C 013:890 JLINK_ReadReg(R11)  returns 0x00000000 (0000ms, 0719ms total)
T116C 013:890 JLINK_ReadReg(R12)  returns 0x00000001 (0000ms, 0719ms total)
T116C 013:890 JLINK_ReadReg(R13 (SP))  returns 0x20000B80 (0001ms, 0720ms total)
T116C 013:891 JLINK_ReadReg(R14)  returns 0x08000AD5 (0000ms, 0720ms total)
T116C 013:891 JLINK_ReadReg(R15 (PC))  returns 0x08000430 (0000ms, 0720ms total)
T116C 013:891 JLINK_ReadReg(XPSR)  returns 0x61000000 (0000ms, 0720ms total)
T116C 013:891 JLINK_ReadReg(MSP)  returns 0x20000B80 (0000ms, 0720ms total)
T116C 013:891 JLINK_ReadReg(PSP)  returns 0x20001000 (0000ms, 0720ms total)
T116C 013:891 JLINK_ReadReg(CFBP)  returns 0x00000000 (0000ms, 0720ms total)
T154C 013:899 JLINK_ReadMem (0x0800042C, 0x003C Bytes, ...) -- CPU_ReadMem(128 bytes @ 0x08000400) -- Updating C cache (128 bytes @ 0x08000400) -- Read from C cache (60 bytes @ 0x0800042C) -- Data:  00 F0 06 FD 02 21 4F 48 01 F0 41 FD 4E A2 02 21 ...  returns 0x00 (0003ms, 0723ms total)
T116C 014:095 JLINK_Step() -- Read from C cache (2 bytes @ 0x08000430) -- CPU_ReadMem(4 bytes @ 0xE0001004) -- Simulated  returns 0x00 (0001ms, 0724ms total)
T116C 014:096 JLINK_ReadReg(R15 (PC))  returns 0x08000432 (0000ms, 0724ms total)
T116C 014:096 JLINK_ReadReg(XPSR)  returns 0x21000000 (0000ms, 0724ms total)
T116C 014:096 JLINK_Step() -- Read from C cache (2 bytes @ 0x08000432) -- CPU_ReadMem(64 bytes @ 0x08000540) -- Updating C cache (64 bytes @ 0x08000540) -- Read from C cache (4 bytes @ 0x08000570) -- Simulated  returns 0x00 (0001ms, 0725ms total)
T116C 014:097 JLINK_ReadReg(R15 (PC))  returns 0x08000434 (0000ms, 0725ms total)
T116C 014:097 JLINK_ReadReg(XPSR)  returns 0x21000000 (0000ms, 0725ms total)
T116C 014:097 JLINK_SetBPEx(Addr = 0x08000438, Type = 0xFFFFFFF2)  returns 0x00000019 (0000ms, 0725ms total)
T116C 014:097 JLINK_SetBPEx(Addr = 0x08001B22, Type = 0xFFFFFFF2)  returns 0x0000001A (0000ms, 0725ms total)
T116C 014:097 JLINK_SetBPEx(Addr = 0x080018B2, Type = 0xFFFFFFF2)  returns 0x0000001B (0000ms, 0725ms total)
T116C 014:097 JLINK_Go() -- CPU_WriteMem(4 bytes @ 0xE0002008) -- CPU_WriteMem(4 bytes @ 0xE0001004) (0002ms, 0727ms total)
T116C 014:200 JLINK_IsHalted()  returns TRUE (0005ms, 0732ms total)
T116C 014:206 JLINK_Halt()  returns 0x00 (0000ms, 0727ms total)
T116C 014:206 JLINK_IsHalted()  returns TRUE (0000ms, 0727ms total)
T116C 014:206 JLINK_IsHalted()  returns TRUE (0000ms, 0727ms total)
T116C 014:206 JLINK_IsHalted()  returns TRUE (0000ms, 0727ms total)
T116C 014:206 JLINK_ReadReg(R15 (PC))  returns 0x08000438 (0000ms, 0727ms total)
T116C 014:206 JLINK_ReadReg(XPSR)  returns 0x21000000 (0000ms, 0727ms total)
T116C 014:206 JLINK_ClrBPEx(BPHandle = 0x00000019)  returns 0x00 (0000ms, 0727ms total)
T116C 014:206 JLINK_ClrBPEx(BPHandle = 0x0000001A)  returns 0x00 (0000ms, 0727ms total)
T116C 014:206 JLINK_ClrBPEx(BPHandle = 0x0000001B)  returns 0x00 (0000ms, 0727ms total)
T116C 014:206 JLINK_ReadMemU32(0xE000ED30, 0x0001 Items, ...) -- CPU_ReadMem(4 bytes @ 0xE000ED30) -- Data:  03 00 00 00  returns 0x01 (0001ms, 0728ms total)
T116C 014:207 JLINK_ReadMemU32(0xE0001028, 0x0001 Items, ...) -- CPU_ReadMem(4 bytes @ 0xE0001028) -- Data:  00 00 00 00  returns 0x01 (0001ms, 0729ms total)
T116C 014:208 JLINK_ReadMemU32(0xE0001038, 0x0001 Items, ...) -- CPU_ReadMem(4 bytes @ 0xE0001038) -- Data:  00 02 00 00  returns 0x01 (0000ms, 0729ms total)
T116C 014:208 JLINK_ReadMemU32(0xE0001048, 0x0001 Items, ...) -- CPU_ReadMem(4 bytes @ 0xE0001048) -- Data:  00 00 00 00  returns 0x01 (0001ms, 0730ms total)
T116C 014:209 JLINK_ReadMemU32(0xE0001058, 0x0001 Items, ...) -- CPU_ReadMem(4 bytes @ 0xE0001058) -- Data:  00 00 00 00  returns 0x01 (0001ms, 0731ms total)
T116C 014:210 JLINK_ReadReg(R0)  returns 0x40011800 (0000ms, 0731ms total)
T116C 014:210 JLINK_ReadReg(R1)  returns 0x00000002 (0000ms, 0731ms total)
T116C 014:210 JLINK_ReadReg(R2)  returns 0x40010C00 (0000ms, 0731ms total)
T116C 014:210 JLINK_ReadReg(R3)  returns 0x10030001 (0000ms, 0731ms total)
T116C 014:210 JLINK_ReadReg(R4)  returns 0x00000000 (0000ms, 0731ms total)
T116C 014:210 JLINK_ReadReg(R5)  returns 0x20000528 (0000ms, 0731ms total)
T116C 014:210 JLINK_ReadReg(R6)  returns 0x00000000 (0000ms, 0731ms total)
T116C 014:210 JLINK_ReadReg(R7)  returns 0x00000000 (0000ms, 0731ms total)
T116C 014:210 JLINK_ReadReg(R8)  returns 0x00000000 (0000ms, 0731ms total)
T116C 014:210 JLINK_ReadReg(R9)  returns 0x20000160 (0000ms, 0731ms total)
T116C 014:210 JLINK_ReadReg(R10)  returns 0x080053E8 (0000ms, 0731ms total)
T116C 014:210 JLINK_ReadReg(R11)  returns 0x00000000 (0000ms, 0731ms total)
T116C 014:210 JLINK_ReadReg(R12)  returns 0x00000001 (0001ms, 0732ms total)
T116C 014:211 JLINK_ReadReg(R13 (SP))  returns 0x20000B80 (0000ms, 0732ms total)
T116C 014:211 JLINK_ReadReg(R14)  returns 0x08000439 (0000ms, 0732ms total)
T116C 014:211 JLINK_ReadReg(R15 (PC))  returns 0x08000438 (0000ms, 0732ms total)
T116C 014:211 JLINK_ReadReg(XPSR)  returns 0x21000000 (0000ms, 0732ms total)
T116C 014:211 JLINK_ReadReg(MSP)  returns 0x20000B80 (0000ms, 0732ms total)
T116C 014:211 JLINK_ReadReg(PSP)  returns 0x20001000 (0000ms, 0732ms total)
T116C 014:211 JLINK_ReadReg(CFBP)  returns 0x00000000 (0000ms, 0732ms total)
T116C 014:383 JLINK_ReadMem (0x08000438, 0x003C Bytes, ...) -- CPU_ReadMem(128 bytes @ 0x08000400) -- Updating C cache (128 bytes @ 0x08000400) -- Read from C cache (60 bytes @ 0x08000438) -- Data:  4E A2 02 21 08 46 00 F0 FD FC 4F F4 FA 70 00 F0 ...  returns 0x00 (0002ms, 0734ms total)
T116C 014:385 JLINK_Step() -- Read from C cache (2 bytes @ 0x08000438) -- CPU_ReadMem(4 bytes @ 0xE0001004) -- Simulated  returns 0x00 (0001ms, 0735ms total)
T116C 014:386 JLINK_ReadReg(R15 (PC))  returns 0x0800043A (0000ms, 0735ms total)
T116C 014:386 JLINK_ReadReg(XPSR)  returns 0x21000000 (0000ms, 0735ms total)
T116C 014:386 JLINK_Step() -- Read from C cache (2 bytes @ 0x0800043A) -- Simulated  returns 0x00 (0000ms, 0735ms total)
T116C 014:386 JLINK_ReadReg(R15 (PC))  returns 0x0800043C (0000ms, 0735ms total)
T116C 014:386 JLINK_ReadReg(XPSR)  returns 0x21000000 (0000ms, 0735ms total)
T116C 014:386 JLINK_Step() -- Read from C cache (2 bytes @ 0x0800043C) -- Simulated  returns 0x00 (0000ms, 0735ms total)
T116C 014:386 JLINK_ReadReg(R15 (PC))  returns 0x0800043E (0000ms, 0735ms total)
T116C 014:386 JLINK_ReadReg(XPSR)  returns 0x21000000 (0000ms, 0735ms total)
T116C 014:386 JLINK_SetBPEx(Addr = 0x08000442, Type = 0xFFFFFFF2)  returns 0x0000001C (0000ms, 0735ms total)
T116C 014:386 JLINK_SetBPEx(Addr = 0x08001B22, Type = 0xFFFFFFF2)  returns 0x0000001D (0000ms, 0735ms total)
T116C 014:386 JLINK_SetBPEx(Addr = 0x080018B2, Type = 0xFFFFFFF2)  returns 0x0000001E (0000ms, 0735ms total)
T116C 014:386 JLINK_Go() -- CPU_WriteMem(4 bytes @ 0xE0002008) -- CPU_WriteMem(4 bytes @ 0xE0001004) (0002ms, 0737ms total)
T116C 014:490 JLINK_IsHalted()  returns TRUE (0005ms, 0742ms total)
T116C 014:495 JLINK_Halt()  returns 0x00 (0000ms, 0737ms total)
T116C 014:495 JLINK_IsHalted()  returns TRUE (0000ms, 0737ms total)
T116C 014:495 JLINK_IsHalted()  returns TRUE (0000ms, 0737ms total)
T116C 014:495 JLINK_IsHalted()  returns TRUE (0000ms, 0737ms total)
T116C 014:495 JLINK_ReadReg(R15 (PC))  returns 0x08000442 (0000ms, 0737ms total)
T116C 014:495 JLINK_ReadReg(XPSR)  returns 0x61000000 (0000ms, 0737ms total)
T116C 014:495 JLINK_ClrBPEx(BPHandle = 0x0000001C)  returns 0x00 (0000ms, 0737ms total)
T116C 014:495 JLINK_ClrBPEx(BPHandle = 0x0000001D)  returns 0x00 (0000ms, 0737ms total)
T116C 014:495 JLINK_ClrBPEx(BPHandle = 0x0000001E)  returns 0x00 (0000ms, 0737ms total)
T116C 014:495 JLINK_ReadMemU32(0xE000ED30, 0x0001 Items, ...) -- CPU_ReadMem(4 bytes @ 0xE000ED30) -- Data:  03 00 00 00  returns 0x01 (0001ms, 0738ms total)
T116C 014:496 JLINK_ReadMemU32(0xE0001028, 0x0001 Items, ...) -- CPU_ReadMem(4 bytes @ 0xE0001028) -- Data:  00 00 00 00  returns 0x01 (0001ms, 0739ms total)
